
T2298 000:381 SEGGER J-Link V4.80g Log File (0001ms, 0264ms total)
T2298 000:381 DLL Compiled: Feb 13 2014 20:50:02 (0001ms, 0264ms total)
T2298 000:381 Logging started @ 2014-08-09 03:26 (0001ms, 0264ms total)
T2298 000:382 JLINK_SetWarnOutHandler(...) (0000ms, 0264ms total)
T2298 000:382 JLINK_OpenEx(...)
Firmware: J-Link ARM V8 compiled Nov 25 2013 19:20:08
Hardware: V8.00
S/N: 99999993
Feature(s): RDI,FlashDL,FlashBP,JFlash,GDBFULL  returns O.K. (0261ms, 0525ms total)
T2298 000:643 JLINK_SetErrorOutHandler(...) (0000ms, 0525ms total)
T2298 000:643 JLINK_ExecCommand("ProjectFile = "D:\TM4C_Program\Fly_0805\Project\JLinkSettings.ini"", ...)  returns 0x00 (0000ms, 0525ms total)
T2298 000:643 JLINK_ExecCommand("Device = TM4C123GH6PGE", ...)Device "TM4C123GH6PGE" selected (256 KB flash, 32 KB RAM).  returns 0x00 (0001ms, 0526ms total)
T2298 000:644 JLINK_ExecCommand("DisableConnectionTimeout", ...)  returns 0x01 (0000ms, 0526ms total)
T2298 000:644 JLINK_GetHardwareVersion()  returns 0x13880 (0000ms, 0526ms total)
T2298 000:644 JLINK_GetDLLVersion()  returns 48007 (0000ms, 0526ms total)
T2298 000:644 JLINK_GetFirmwareString(...) (0000ms, 0526ms total)
T2298 000:646 JLINK_GetDLLVersion()  returns 48007 (0000ms, 0526ms total)
T2298 000:646 JLINK_GetCompileDateTime() (0000ms, 0526ms total)
T2298 000:646 JLINK_GetFirmwareString(...) (0000ms, 0526ms total)
T2298 000:647 JLINK_GetHardwareVersion()  returns 0x13880 (0000ms, 0526ms total)
T2298 000:649 JLINK_TIF_Select(JLINKARM_TIF_JTAG)  returns 0x00 (0002ms, 0528ms total)
T2298 000:651 JLINK_SetSpeed(2000) (0000ms, 0528ms total)
T2298 000:651 JLINK_GetIdData(...) >0x2F8 JTAG>TotalIRLen = 4, IRPrint = 0x01 >0x30 JTAG> >0x210 JTAG> >0x70 JTAG> >0x40 JTAG> >0x40 JTAG> >0x40 JTAG> >0x48 JTAG> >0x78 JTAG> >0x40 JTAG> >0x30 JTAG> >0x40 JTAG> >0x40 JTAG> >0x30 JTAG> >0x40 JTAG> >0x48 JTAG>Found Cortex-M4 r0p1, Little endian. -- CPU_WriteMem(4 bytes @ 0xE0002000) -- CPU_ReadMem(4 bytes @ 0xE000EDF0) -- CPU_ReadMem(4 bytes @ 0xE0002000)FPUnit: 6 code (BP) slots and 2 literal slots -- CPU_ReadMem(4 bytes @ 0xE000EDFC)
 -- CPU_ReadMem(4 bytes @ 0xE0001000) -- CPU_WriteMem(4 bytes @ 0xE0001000) -- CPU_ReadMem(4 bytes @ 0xE00FF010)TPIU fitted. -- CPU_ReadMem(4 bytes @ 0xE00FF014)ETM fitted. -- CPU_ReadMem(4 bytes @ 0xE00FF018) -- CPU is running -- CPU_ReadMem(4 bytes @ 0x400FE0F0) ScanLen=4 NumDevices=1 aId[0]=0x4BA00477 aIrRead[0]=0 aScanLen[0]=0 aScanRead[0]=0 (0023ms, 0551ms total)
T2298 000:674 JLINK_JTAG_GetDeviceID(DeviceIndex = 0)  returns 0x4BA00477 (0000ms, 0551ms total)
T2298 000:674 JLINK_JTAG_GetDeviceInfo(DeviceIndex = 0)  returns 0x00 (0000ms, 0551ms total)
T2298 000:674 JLINK_GetDeviceFamily()  returns 14 (0000ms, 0551ms total)
T2298 000:674 JLINK_ReadMem (0xE00FFFF0, 0x0010 Bytes, ...) -- CPU is running -- CPU_ReadMem(16 bytes @ 0xE00FFFF0) -- Data:  0D 00 00 00 10 00 00 00 05 00 00 00 B1 00 00 00  returns 0x00 (0001ms, 0552ms total)
T2298 000:675 JLINK_ReadMem (0xE00FFFD0, 0x0020 Bytes, ...) -- CPU is running -- CPU_ReadMem(32 bytes @ 0xE00FFFD0) -- Data:  04 00 00 00 00 00 00 00 00 00 00 00 00 00 00 00 ...  returns 0x00 (0001ms, 0553ms total)
T2298 000:676 JLINK_ReadMem (0xE00FF000, 0x0018 Bytes, ...) -- CPU is running -- CPU_ReadMem(24 bytes @ 0xE00FF000) -- Data:  03 F0 F0 FF 03 20 F0 FF 03 30 F0 FF 03 10 F0 FF ...  returns 0x00 (0001ms, 0554ms total)
T2298 000:677 JLINK_ReadMemU32(0xE000ED00, 0x0001 Items, ...) -- CPU is running -- CPU_ReadMem(4 bytes @ 0xE000ED00) -- Data:  41 C2 0F 41  returns 0x01 (0001ms, 0555ms total)
T2298 000:678 JLINK_ReadMemU32(0xE000EF40, 0x0001 Items, ...) -- CPU is running -- CPU_ReadMem(4 bytes @ 0xE000EF40) -- Data:  21 00 11 10  returns 0x01 (0001ms, 0556ms total)
T2298 000:679 JLINK_ReadMemU32(0xE000EF44, 0x0001 Items, ...) -- CPU is running -- CPU_ReadMem(4 bytes @ 0xE000EF44) -- Data:  11 00 00 11  returns 0x01 (0001ms, 0557ms total)
T2298 000:680 JLINK_SetResetType(JLINKARM_RESET_TYPE_NORMAL)  returns JLINKARM_RESET_TYPE_NORMAL (0000ms, 0557ms total)
T2298 000:680 JLINK_Reset() -- CPU is running -- CPU_WriteMem(4 bytes @ 0xE000EDF0) -- CPU is running -- CPU_WriteMem(4 bytes @ 0xE000EDFC) -- CPU is running -- CPU_WriteMem(4 bytes @ 0xE000ED0C) -- CPU is running -- CPU_ReadMem(4 bytes @ 0xE000EDF0) -- CPU is running -- CPU_ReadMem(4 bytes @ 0xE000EDF0) -- CPU is running -- CPU_WriteMem(4 bytes @ 0xE000EDF0) -- CPU is running -- CPU_WriteMem(4 bytes @ 0xE000EDFC) -- CPU is running -- CPU_ReadMem(4 bytes @ 0xE000EDF0) >0x78 JTAG> >0x40 JTAG> >0x30 JTAG>
 >0x40 JTAG> >0x48 JTAG> >0x40 JTAG> -- CPU_WriteMem(4 bytes @ 0xE000EDFC) -- CPU_WriteMem(4 bytes @ 0xE0001028) -- CPU_WriteMem(4 bytes @ 0xE0001038) -- CPU_WriteMem(4 bytes @ 0xE0001048) -- CPU_WriteMem(4 bytes @ 0xE0001058) -- CPU_ReadMem(4 bytes @ 0x400FE0F0) -- CPU_WriteMem(4 bytes @ 0xE0002000) -- CPU_ReadMem(4 bytes @ 0xE000EDFC) -- CPU_ReadMem(4 bytes @ 0xE0001000) (0030ms, 0587ms total)
T2298 000:710 JLINK_ReadReg(R15 (PC))  returns 0x000058C4 (0000ms, 0587ms total)
T2298 000:710 JLINK_ReadReg(XPSR)  returns 0x01000000 (0000ms, 0587ms total)
T2298 000:710 JLINK_Halt()  returns 0x00 (0000ms, 0587ms total)
T2298 000:710 JLINK_IsHalted()  returns TRUE (0000ms, 0587ms total)
T2298 000:710 JLINK_ReadMemU32(0xE000EDF0, 0x0001 Items, ...) -- CPU_ReadMem(4 bytes @ 0xE000EDF0) -- Data:  03 00 03 00  returns 0x01 (0001ms, 0588ms total)
T2298 000:711 JLINK_WriteU32(0xE000EDF0, 0xA05F0003) -- CPU_WriteMem(4 bytes @ 0xE000EDF0)  returns 0x00 (0001ms, 0589ms total)
T2298 000:712 JLINK_WriteU32(0xE000EDFC, 0x01000000) -- CPU_WriteMem(4 bytes @ 0xE000EDFC)  returns 0x00 (0000ms, 0589ms total)
T2298 000:713 JLINK_GetHWStatus(...)  returns 0x00 (0000ms, 0589ms total)
T2298 000:714 JLINK_GetNumBPUnits(Type = 0xFFFFFF00)  returns 0x06 (0000ms, 0589ms total)
T2298 000:714 JLINK_GetNumBPUnits(Type = 0xF0)  returns 0x2000 (0000ms, 0589ms total)
T2298 000:714 JLINK_GetNumWPUnits()  returns 0x04 (0000ms, 0589ms total)
T2298 000:715 JLINK_GetSpeed()  returns 0x7D0 (0000ms, 0589ms total)
T2298 000:715 JLINK_ReadMemU32(0xE000E004, 0x0001 Items, ...) -- CPU_ReadMem(4 bytes @ 0xE000E004) -- Data:  04 00 00 00  returns 0x01 (0001ms, 0590ms total)
T2298 000:716 JLINK_ReadMemU32(0xE000E004, 0x0001 Items, ...) -- CPU_ReadMem(4 bytes @ 0xE000E004) -- Data:  04 00 00 00  returns 0x01 (0001ms, 0591ms total)
T2298 000:717 JLINK_WriteMem(0xE0001000, 0x001C Bytes, ...) -- Data:  01 00 00 00 00 00 00 00 00 00 00 00 00 00 00 00 ... -- CPU_WriteMem(28 bytes @ 0xE0001000)  returns 0x1C (0001ms, 0592ms total)
T2298 000:718 JLINK_ReadMem (0xE0001000, 0x001C Bytes, ...) -- CPU_ReadMem(28 bytes @ 0xE0001000) -- Data:  01 00 00 40 00 00 00 00 00 00 00 00 00 00 00 00 ...  returns 0x00 (0001ms, 0593ms total)
T2298 000:719 JLINK_ReadReg(R15 (PC))  returns 0x000058C4 (0000ms, 0593ms total)
T2298 000:719 JLINK_ReadReg(XPSR)  returns 0x01000000 (0000ms, 0593ms total)
T2298 000:789 JLINK_SetResetType(JLINKARM_RESET_TYPE_NORMAL)  returns JLINKARM_RESET_TYPE_NORMAL (0000ms, 0593ms total)
T2298 000:789 JLINK_Reset() -- CPU_WriteMem(4 bytes @ 0xE000EDF0) -- CPU_WriteMem(4 bytes @ 0xE000EDFC) -- CPU_WriteMem(4 bytes @ 0xE000ED0C) -- CPU_ReadMem(4 bytes @ 0xE000EDF0) -- CPU_ReadMem(4 bytes @ 0xE000EDF0) -- CPU_WriteMem(4 bytes @ 0xE000EDF0) -- CPU_WriteMem(4 bytes @ 0xE000EDFC) -- CPU is running -- CPU_ReadMem(4 bytes @ 0xE000EDF0) >0x78 JTAG> >0x40 JTAG> >0x30 JTAG> >0x40 JTAG> >0x48 JTAG> >0x40 JTAG> -- CPU_WriteMem(4 bytes @ 0xE000EDFC) -- CPU_WriteMem(4 bytes @ 0xE0001028)
 -- CPU_WriteMem(4 bytes @ 0xE0001038) -- CPU_WriteMem(4 bytes @ 0xE0001048) -- CPU_WriteMem(4 bytes @ 0xE0001058) -- CPU_ReadMem(4 bytes @ 0x400FE0F0) -- CPU_WriteMem(4 bytes @ 0xE0002000) -- CPU_ReadMem(4 bytes @ 0xE000EDFC) -- CPU_ReadMem(4 bytes @ 0xE0001000) (0030ms, 0623ms total)
T2298 000:819 JLINK_ReadReg(R15 (PC))  returns 0x000058C4 (0000ms, 0623ms total)
T2298 000:819 JLINK_ReadReg(XPSR)  returns 0x01000000 (0000ms, 0623ms total)
T2298 000:819 JLINK_ReadMem (0x000058C4, 0x003C Bytes, ...) -- CPU_ReadMem(64 bytes @ 0x000058C0) -- Updating C cache (64 bytes @ 0x000058C0) -- Read from C cache (60 bytes @ 0x000058C4) -- Data:  3F 48 80 47 3F 48 00 47 FE E7 FE E7 FE E7 FE E7 ...  returns 0x00 (0001ms, 0624ms total)
T2298 001:054 JLINK_ReadMem (0x4000C000, 0x0004 Bytes, ...) -- CPU_ReadMem(4 bytes @ 0x4000C000) -- Data:  AA AA AA AA  returns 0x01 (0002ms, 0626ms total)
T2298 001:056 JLINK_ReadMem (0x4000C004, 0x0004 Bytes, ...) -- CPU_ReadMem(4 bytes @ 0x4000C004) -- Data:  AA AA AA AA  returns 0x01 (0001ms, 0627ms total)
T2298 001:057 JLINK_ReadMem (0x4000C018, 0x0004 Bytes, ...) -- CPU_ReadMem(4 bytes @ 0x4000C018) -- Data:  AA AA AA AA  returns 0x01 (0001ms, 0628ms total)
T2298 001:058 JLINK_ReadMem (0x4000C020, 0x0020 Bytes, ...) -- CPU_ReadMem(32 bytes @ 0x4000C020) -- Data:  AA AA AA AA AA AA AA AA AA AA AA AA AA AA AA AA ...  returns 0x01 (0001ms, 0629ms total)
T2298 001:059 JLINK_ReadMem (0x4000C040, 0x0004 Bytes, ...) -- CPU_ReadMem(4 bytes @ 0x4000C040) -- Data:  AA AA AA AA  returns 0x01 (0001ms, 0630ms total)
T2298 001:060 JLINK_ReadMem (0x4000C048, 0x0004 Bytes, ...) -- CPU_ReadMem(4 bytes @ 0x4000C048) -- Data:  AA AA AA AA  returns 0x01 (0001ms, 0631ms total)
T2298 001:061 JLINK_ReadMem (0x4000C0A4, 0x0004 Bytes, ...) -- CPU_ReadMem(4 bytes @ 0x4000C0A4) -- Data:  AA AA AA AA  returns 0x01 (0001ms, 0632ms total)
T2298 001:062 JLINK_ReadMem (0x4000C0A8, 0x0004 Bytes, ...) -- CPU_ReadMem(4 bytes @ 0x4000C0A8) -- Data:  AA AA AA AA  returns 0x01 (0001ms, 0633ms total)
T2298 001:063 JLINK_ReadMem (0x4000CFC0, 0x0004 Bytes, ...) -- CPU_ReadMem(4 bytes @ 0x4000CFC0) -- Data:  AA AA AA AA  returns 0x01 (0001ms, 0634ms total)
T2298 001:064 JLINK_ReadMem (0x4000CFC8, 0x0004 Bytes, ...) -- CPU_ReadMem(4 bytes @ 0x4000CFC8) -- Data:  AA AA AA AA  returns 0x01 (0001ms, 0635ms total)
T2298 003:503 JLINK_ReadMem (0x20000612, 0x0010 Bytes, ...) -- CPU_ReadMem(64 bytes @ 0x20000600) -- Updating C cache (64 bytes @ 0x20000600) -- Read from C cache (16 bytes @ 0x20000612) -- Data:  00 00 00 00 00 00 00 00 00 00 00 00 00 00 00 00  returns 0x00 (0001ms, 0636ms total)
T2298 003:506 JLINK_ReadMem (0x20000160, 0x0004 Bytes, ...) -- CPU_ReadMem(64 bytes @ 0x20000140) -- Updating C cache (64 bytes @ 0x20000140) -- Read from C cache (4 bytes @ 0x20000160) -- Data:  00 00 00 00  returns 0x00 (0001ms, 0637ms total)
T2298 003:526 JLINK_ReadMem (0x2000005C, 0x0002 Bytes, ...) -- CPU_ReadMem(64 bytes @ 0x20000040) -- Updating C cache (64 bytes @ 0x20000040) -- Read from C cache (2 bytes @ 0x2000005C) -- Data:  00 00  returns 0x00 (0001ms, 0638ms total)
T2298 003:530 JLINK_ReadMem (0x2000005E, 0x0002 Bytes, ...) -- Read from C cache (2 bytes @ 0x2000005E) -- Data:  00 00  returns 0x00 (0000ms, 0638ms total)
T2298 003:531 JLINK_ReadMem (0x20000060, 0x0002 Bytes, ...) -- Read from C cache (2 bytes @ 0x20000060) -- Data:  00 00  returns 0x00 (0000ms, 0638ms total)
T2298 003:534 JLINK_ReadMem (0x20000062, 0x0002 Bytes, ...) -- Read from C cache (2 bytes @ 0x20000062) -- Data:  00 00  returns 0x00 (0000ms, 0638ms total)
T2298 003:536 JLINK_ReadMem (0x20000480, 0x0020 Bytes, ...) -- CPU_ReadMem(64 bytes @ 0x20000480) -- Updating C cache (64 bytes @ 0x20000480) -- Read from C cache (32 bytes @ 0x20000480) -- Data:  00 00 00 00 00 00 00 00 00 00 00 00 00 00 00 00 ...  returns 0x00 (0001ms, 0639ms total)
T2298 003:541 JLINK_ReadMem (0x20000028, 0x0004 Bytes, ...) -- CPU_ReadMem(64 bytes @ 0x20000000) -- Updating C cache (64 bytes @ 0x20000000) -- Read from C cache (4 bytes @ 0x20000028) -- Data:  00 00 00 00  returns 0x00 (0001ms, 0640ms total)
T22F8 003:655 JLINK_SetBPEx(Addr = 0x0000036C, Type = 0xFFFFFFF2)  returns 0x00000001 (0000ms, 0640ms total)
T22F8 003:655 JLINK_Go() -- CPU_WriteMem(4 bytes @ 0xE0002008) -- CPU_WriteMem(4 bytes @ 0xE000200C) -- CPU_WriteMem(4 bytes @ 0xE0002010) -- CPU_WriteMem(4 bytes @ 0xE0002014) -- CPU_WriteMem(4 bytes @ 0xE0002018) -- CPU_WriteMem(4 bytes @ 0xE000201C) -- CPU_WriteMem(4 bytes @ 0xE0001004) (0006ms, 0646ms total)
T22F8 003:761 JLINK_IsHalted()  returns TRUE (0004ms, 0650ms total)
T22F8 003:765 JLINK_Halt()  returns 0x00 (0000ms, 0646ms total)
T22F8 003:765 JLINK_IsHalted()  returns TRUE (0000ms, 0646ms total)
T22F8 003:765 JLINK_IsHalted()  returns TRUE (0000ms, 0646ms total)
T22F8 003:765 JLINK_IsHalted()  returns TRUE (0000ms, 0646ms total)
T22F8 003:765 JLINK_ReadReg(R15 (PC))  returns 0x0000036C (0000ms, 0646ms total)
T22F8 003:765 JLINK_ReadReg(XPSR)  returns 0x21000000 (0000ms, 0646ms total)
T22F8 003:765 JLINK_ClrBPEx(BPHandle = 0x00000001)  returns 0x00 (0000ms, 0646ms total)
T22F8 003:765 JLINK_ReadMemU32(0xE000ED30, 0x0001 Items, ...) -- CPU_ReadMem(4 bytes @ 0xE000ED30) -- Data:  03 00 00 00  returns 0x01 (0001ms, 0647ms total)
T22F8 003:766 JLINK_ReadMemU32(0xE0001028, 0x0001 Items, ...) -- CPU_ReadMem(4 bytes @ 0xE0001028) -- Data:  00 00 00 00  returns 0x01 (0001ms, 0648ms total)
T22F8 003:767 JLINK_ReadMemU32(0xE0001038, 0x0001 Items, ...) -- CPU_ReadMem(4 bytes @ 0xE0001038) -- Data:  00 02 00 00  returns 0x01 (0001ms, 0649ms total)
T22F8 003:768 JLINK_ReadMemU32(0xE0001048, 0x0001 Items, ...) -- CPU_ReadMem(4 bytes @ 0xE0001048) -- Data:  00 00 00 00  returns 0x01 (0000ms, 0649ms total)
T22F8 003:768 JLINK_ReadMemU32(0xE0001058, 0x0001 Items, ...) -- CPU_ReadMem(4 bytes @ 0xE0001058) -- Data:  00 00 00 00  returns 0x01 (0001ms, 0650ms total)
T22F8 003:769 JLINK_ReadReg(R0)  returns 0x200006F8 (0000ms, 0650ms total)
T22F8 003:769 JLINK_ReadReg(R1)  returns 0x200006F8 (0000ms, 0650ms total)
T22F8 003:769 JLINK_ReadReg(R2)  returns 0x200006F8 (0000ms, 0650ms total)
T22F8 003:769 JLINK_ReadReg(R3)  returns 0x200006F8 (0000ms, 0650ms total)
T22F8 003:769 JLINK_ReadReg(R4)  returns 0x00000000 (0000ms, 0650ms total)
T22F8 003:769 JLINK_ReadReg(R5)  returns 0x20000698 (0000ms, 0650ms total)
T22F8 003:769 JLINK_ReadReg(R6)  returns 0x00000000 (0000ms, 0650ms total)
T22F8 003:769 JLINK_ReadReg(R7)  returns 0x00000000 (0000ms, 0650ms total)
T22F8 003:769 JLINK_ReadReg(R8)  returns 0x00000000 (0000ms, 0650ms total)
T22F8 003:769 JLINK_ReadReg(R9)  returns 0x00000000 (0000ms, 0650ms total)
T22F8 003:769 JLINK_ReadReg(R10)  returns 0x00007EA0 (0000ms, 0650ms total)
T22F8 003:769 JLINK_ReadReg(R11)  returns 0x00000000 (0000ms, 0650ms total)
T22F8 003:769 JLINK_ReadReg(R12)  returns 0x200006D8 (0000ms, 0650ms total)
T22F8 003:769 JLINK_ReadReg(R13 (SP))  returns 0x200008F8 (0000ms, 0650ms total)
T22F8 003:769 JLINK_ReadReg(R14)  returns 0x0000031B (0000ms, 0650ms total)
T22F8 003:769 JLINK_ReadReg(R15 (PC))  returns 0x0000036C (0000ms, 0650ms total)
T22F8 003:769 JLINK_ReadReg(XPSR)  returns 0x21000000 (0000ms, 0650ms total)
T22F8 003:769 JLINK_ReadReg(MSP)  returns 0x200008F8 (0000ms, 0650ms total)
T22F8 003:769 JLINK_ReadReg(PSP)  returns 0x00000000 (0000ms, 0650ms total)
T22F8 003:769 JLINK_ReadReg(CFBP)  returns 0x04000000 (0000ms, 0650ms total)
T22F8 003:769 JLINK_ReadReg(FPSCR)  returns 0x03000000 (0008ms, 0658ms total)
T22F8 003:777 JLINK_ReadReg(FPS0)  returns 0x00000000 (0000ms, 0658ms total)
T22F8 003:777 JLINK_ReadReg(FPS1)  returns 0x00000000 (0000ms, 0658ms total)
T22F8 003:777 JLINK_ReadReg(FPS2)  returns 0x00000000 (0000ms, 0658ms total)
T22F8 003:777 JLINK_ReadReg(FPS3)  returns 0x00000000 (0000ms, 0658ms total)
T22F8 003:777 JLINK_ReadReg(FPS4)  returns 0x00000000 (0000ms, 0658ms total)
T22F8 003:777 JLINK_ReadReg(FPS5)  returns 0x00000000 (0000ms, 0658ms total)
T22F8 003:777 JLINK_ReadReg(FPS6)  returns 0x00000000 (0000ms, 0658ms total)
T22F8 003:777 JLINK_ReadReg(FPS7)  returns 0x00000000 (0000ms, 0658ms total)
T22F8 003:777 JLINK_ReadReg(FPS8)  returns 0x00000000 (0000ms, 0658ms total)
T22F8 003:777 JLINK_ReadReg(FPS9)  returns 0x00000000 (0000ms, 0658ms total)
T22F8 003:777 JLINK_ReadReg(FPS10)  returns 0x00000000 (0000ms, 0658ms total)
T22F8 003:777 JLINK_ReadReg(FPS11)  returns 0x00000000 (0000ms, 0658ms total)
T22F8 003:777 JLINK_ReadReg(FPS12)  returns 0x00000000 (0000ms, 0658ms total)
T22F8 003:777 JLINK_ReadReg(FPS13)  returns 0x00000000 (0000ms, 0658ms total)
T22F8 003:777 JLINK_ReadReg(FPS14)  returns 0x00000000 (0000ms, 0658ms total)
T22F8 003:777 JLINK_ReadReg(FPS15)  returns 0x00000000 (0000ms, 0658ms total)
T22F8 003:777 JLINK_ReadReg(FPS16)  returns 0x00000000 (0000ms, 0658ms total)
T22F8 003:777 JLINK_ReadReg(FPS17)  returns 0x00000000 (0000ms, 0658ms total)
T22F8 003:777 JLINK_ReadReg(FPS18)  returns 0x00000000 (0000ms, 0658ms total)
T22F8 003:777 JLINK_ReadReg(FPS19)  returns 0x00000000 (0000ms, 0658ms total)
T22F8 003:777 JLINK_ReadReg(FPS20)  returns 0x00000000 (0000ms, 0658ms total)
T22F8 003:777 JLINK_ReadReg(FPS31)  returns 0x00000000 (0000ms, 0658ms total)
T22F8 003:777 JLINK_ReadReg(FPS7)  returns 0x00000000 (0000ms, 0658ms total)
T22F8 003:777 JLINK_ReadReg(FPS8)  returns 0x00000000 (0000ms, 0658ms total)
T22F8 003:777 JLINK_ReadReg(FPS9)  returns 0x00000000 (0000ms, 0658ms total)
T22F8 003:777 JLINK_ReadReg(FPS10)  returns 0x00000000 (0000ms, 0658ms total)
T22F8 003:777 JLINK_ReadReg(FPS11)  returns 0x00000000 (0000ms, 0658ms total)
T22F8 003:777 JLINK_ReadReg(FPS12)  returns 0x00000000 (0000ms, 0658ms total)
T22F8 003:777 JLINK_ReadReg(FPS13)  returns 0x00000000 (0000ms, 0658ms total)
T22F8 003:777 JLINK_ReadReg(FPS14)  returns 0x00000000 (0000ms, 0658ms total)
T22F8 003:777 JLINK_ReadReg(FPS15)  returns 0x00000000 (0000ms, 0658ms total)
T22F8 003:777 JLINK_ReadReg(FPS16)  returns 0x00000000 (0000ms, 0658ms total)
T2298 003:778 JLINK_ReadMem (0x2000002C, 0x0001 Bytes, ...) -- CPU_ReadMem(64 bytes @ 0x20000000) -- Updating C cache (64 bytes @ 0x20000000) -- Read from C cache (1 bytes @ 0x2000002C) -- Data:  00  returns 0x00 (0001ms, 0659ms total)
T2298 003:779 JLINK_ReadMem (0x2000002D, 0x0001 Bytes, ...) -- Read from C cache (1 bytes @ 0x2000002D) -- Data:  00  returns 0x00 (0000ms, 0659ms total)
T2298 003:779 JLINK_ReadMem (0x20000046, 0x0001 Bytes, ...) -- CPU_ReadMem(64 bytes @ 0x20000040) -- Updating C cache (64 bytes @ 0x20000040) -- Read from C cache (1 bytes @ 0x20000046) -- Data:  00  returns 0x00 (0001ms, 0660ms total)
T2298 003:780 JLINK_ReadMem (0x20000047, 0x0001 Bytes, ...) -- Read from C cache (1 bytes @ 0x20000047) -- Data:  00  returns 0x00 (0000ms, 0660ms total)
T2298 003:780 JLINK_ReadMem (0x20000048, 0x0001 Bytes, ...) -- Read from C cache (1 bytes @ 0x20000048) -- Data:  00  returns 0x00 (0000ms, 0660ms total)
T2298 003:780 JLINK_ReadMem (0x20000049, 0x0001 Bytes, ...) -- Read from C cache (1 bytes @ 0x20000049) -- Data:  00  returns 0x00 (0000ms, 0660ms total)
T2298 003:782 JLINK_ReadMem (0x20000612, 0x0010 Bytes, ...) -- CPU_ReadMem(64 bytes @ 0x20000600) -- Updating C cache (64 bytes @ 0x20000600) -- Read from C cache (16 bytes @ 0x20000612) -- Data:  00 00 00 00 00 00 00 00 00 00 00 00 00 00 00 00  returns 0x00 (0002ms, 0662ms total)
T2298 003:784 JLINK_ReadMem (0x20000160, 0x0004 Bytes, ...) -- CPU_ReadMem(64 bytes @ 0x20000140) -- Updating C cache (64 bytes @ 0x20000140) -- Read from C cache (4 bytes @ 0x20000160) -- Data:  00 00 00 00  returns 0x00 (0001ms, 0663ms total)
T2298 003:797 JLINK_ReadMem (0x2000005C, 0x0002 Bytes, ...) -- Read from C cache (2 bytes @ 0x2000005C) -- Data:  00 00  returns 0x00 (0000ms, 0663ms total)
T2298 003:797 JLINK_ReadMem (0x2000005E, 0x0002 Bytes, ...) -- Read from C cache (2 bytes @ 0x2000005E) -- Data:  00 00  returns 0x00 (0000ms, 0663ms total)
T2298 003:797 JLINK_ReadMem (0x20000060, 0x0002 Bytes, ...) -- Read from C cache (2 bytes @ 0x20000060) -- Data:  00 00  returns 0x00 (0000ms, 0663ms total)
T2298 003:797 JLINK_ReadMem (0x20000062, 0x0002 Bytes, ...) -- Read from C cache (2 bytes @ 0x20000062) -- Data:  00 00  returns 0x00 (0000ms, 0663ms total)
T2298 003:797 JLINK_ReadMem (0x20000480, 0x0020 Bytes, ...) -- CPU_ReadMem(64 bytes @ 0x20000480) -- Updating C cache (64 bytes @ 0x20000480) -- Read from C cache (32 bytes @ 0x20000480) -- Data:  00 00 00 00 00 00 00 00 00 00 00 00 00 00 00 00 ...  returns 0x00 (0002ms, 0665ms total)
T2298 003:799 JLINK_ReadMem (0x20000028, 0x0004 Bytes, ...) -- Read from C cache (4 bytes @ 0x20000028) -- Data:  00 00 00 00  returns 0x00 (0000ms, 0665ms total)
T2298 003:799 JLINK_ReadMem (0x4000C000, 0x0004 Bytes, ...) -- CPU_ReadMem(4 bytes @ 0x4000C000) -- Data:  AA AA AA AA  returns 0x01 (0001ms, 0666ms total)
T2298 003:800 JLINK_ReadMem (0x4000C004, 0x0004 Bytes, ...) -- CPU_ReadMem(4 bytes @ 0x4000C004) -- Data:  AA AA AA AA  returns 0x01 (0001ms, 0667ms total)
T2298 003:801 JLINK_ReadMem (0x4000C018, 0x0004 Bytes, ...) -- CPU_ReadMem(4 bytes @ 0x4000C018) -- Data:  AA AA AA AA  returns 0x01 (0001ms, 0668ms total)
T2298 003:802 JLINK_ReadMem (0x4000C020, 0x0020 Bytes, ...) -- CPU_ReadMem(32 bytes @ 0x4000C020) -- Data:  AA AA AA AA AA AA AA AA AA AA AA AA AA AA AA AA ...  returns 0x01 (0001ms, 0669ms total)
T2298 003:803 JLINK_ReadMem (0x4000C040, 0x0004 Bytes, ...) -- CPU_ReadMem(4 bytes @ 0x4000C040) -- Data:  AA AA AA AA  returns 0x01 (0001ms, 0670ms total)
T2298 003:804 JLINK_ReadMem (0x4000C048, 0x0004 Bytes, ...) -- CPU_ReadMem(4 bytes @ 0x4000C048) -- Data:  AA AA AA AA  returns 0x01 (0001ms, 0671ms total)
T2298 003:805 JLINK_ReadMem (0x4000C0A4, 0x0004 Bytes, ...) -- CPU_ReadMem(4 bytes @ 0x4000C0A4) -- Data:  AA AA AA AA  returns 0x01 (0001ms, 0672ms total)
T2298 003:806 JLINK_ReadMem (0x4000C0A8, 0x0004 Bytes, ...) -- CPU_ReadMem(4 bytes @ 0x4000C0A8) -- Data:  AA AA AA AA  returns 0x01 (0001ms, 0673ms total)
T2298 003:807 JLINK_ReadMem (0x4000CFC0, 0x0004 Bytes, ...) -- CPU_ReadMem(4 bytes @ 0x4000CFC0) -- Data:  AA AA AA AA  returns 0x01 (0001ms, 0674ms total)
T2298 003:808 JLINK_ReadMem (0x4000CFC8, 0x0004 Bytes, ...) -- CPU_ReadMem(4 bytes @ 0x4000CFC8) -- Data:  AA AA AA AA  returns 0x01 (0001ms, 0675ms total)
T2298 003:814 JLINK_ReadMem (0x0000036C, 0x003C Bytes, ...) -- CPU_ReadMem(128 bytes @ 0x00000340) -- Updating C cache (128 bytes @ 0x00000340) -- Read from C cache (60 bytes @ 0x0000036C) -- Data:  FF F7 DE FF B0 EE 08 0A 73 48 80 ED 00 0A 9F ED ...  returns 0x00 (0002ms, 0677ms total)
T22F8 004:731 JLINK_Go() -- CPU_WriteMem(4 bytes @ 0xE0002008) (0002ms, 0679ms total)
T22F8 004:833 JLINK_IsHalted()  returns FALSE (0000ms, 0679ms total)
T22F8 004:933 JLINK_IsHalted()  returns FALSE (0000ms, 0679ms total)
T22F8 005:033 JLINK_IsHalted()  returns FALSE (0000ms, 0679ms total)
T22F8 005:133 JLINK_IsHalted()  returns FALSE (0000ms, 0679ms total)
T22F8 005:233 JLINK_ReadMemU32(0xE0001004, 0x0001 Items, ...) -- CPU is running -- CPU_ReadMem(4 bytes @ 0xE0001004) -- Data:  FE 8B 68 02  returns 0x01 (0000ms, 0679ms total)
T2298 005:234 JLINK_ReadMem (0x20000612, 0x0010 Bytes, ...) -- CPU is running -- CPU_ReadMem(16 bytes @ 0x20000612) -- Data:  00 00 00 00 00 00 00 00 00 00 00 00 00 00 00 00  returns 0x00 (0001ms, 0680ms total)
T2298 005:235 JLINK_ReadMem (0x20000160, 0x0004 Bytes, ...) -- CPU is running -- CPU_ReadMem(4 bytes @ 0x20000160) -- Data:  00 00 00 00  returns 0x00 (0001ms, 0681ms total)
T2298 005:241 JLINK_ReadMem (0x2000005C, 0x0002 Bytes, ...) -- CPU is running -- CPU_ReadMem(2 bytes @ 0x2000005C) -- Data:  00 00  returns 0x00 (0000ms, 0681ms total)
T2298 005:242 JLINK_ReadMem (0x2000005E, 0x0002 Bytes, ...) -- CPU is running -- CPU_ReadMem(2 bytes @ 0x2000005E) -- Data:  00 00  returns 0x00 (0000ms, 0681ms total)
T2298 005:242 JLINK_ReadMem (0x20000060, 0x0002 Bytes, ...) -- CPU is running -- CPU_ReadMem(2 bytes @ 0x20000060) -- Data:  00 00  returns 0x00 (0001ms, 0682ms total)
T2298 005:243 JLINK_ReadMem (0x20000062, 0x0002 Bytes, ...) -- CPU is running -- CPU_ReadMem(2 bytes @ 0x20000062) -- Data:  00 00  returns 0x00 (0001ms, 0683ms total)
T2298 005:244 JLINK_ReadMem (0x20000480, 0x0020 Bytes, ...) -- CPU is running -- CPU_ReadMem(32 bytes @ 0x20000480) -- Data:  00 00 00 00 00 00 00 00 00 00 00 00 00 00 00 00 ...  returns 0x00 (0001ms, 0684ms total)
T2298 005:245 JLINK_ReadMem (0x20000480, 0x0020 Bytes, ...) -- CPU is running -- CPU_ReadMem(32 bytes @ 0x20000480) -- Data:  00 00 00 00 00 00 00 00 00 00 00 00 00 00 00 00 ...  returns 0x00 (0001ms, 0685ms total)
T2298 005:246 JLINK_ReadMem (0x20000028, 0x0004 Bytes, ...) -- CPU is running -- CPU_ReadMem(4 bytes @ 0x20000028) -- Data:  00 00 00 00  returns 0x00 (0001ms, 0686ms total)
T2298 005:247 JLINK_ReadMem (0x4000C000, 0x0004 Bytes, ...) -- CPU is running -- CPU_ReadMem(4 bytes @ 0x4000C000) -- Data:  AA AA AA AA  returns 0x01 (0001ms, 0687ms total)
T2298 005:248 JLINK_ReadMem (0x4000C004, 0x0004 Bytes, ...) -- CPU is running -- CPU_ReadMem(4 bytes @ 0x4000C004) -- Data:  AA AA AA AA  returns 0x01 (0001ms, 0688ms total)
T2298 005:249 JLINK_ReadMem (0x4000C018, 0x0004 Bytes, ...) -- CPU is running -- CPU_ReadMem(4 bytes @ 0x4000C018) -- Data:  AA AA AA AA  returns 0x01 (0001ms, 0689ms total)
T2298 005:250 JLINK_ReadMem (0x4000C020, 0x0020 Bytes, ...) -- CPU is running -- CPU_ReadMem(32 bytes @ 0x4000C020) -- Data:  AA AA AA AA AA AA AA AA AA AA AA AA AA AA AA AA ...  returns 0x01 (0001ms, 0690ms total)
T2298 005:251 JLINK_ReadMem (0x4000C040, 0x0004 Bytes, ...) -- CPU is running -- CPU_ReadMem(4 bytes @ 0x4000C040) -- Data:  AA AA AA AA  returns 0x01 (0001ms, 0691ms total)
T2298 005:252 JLINK_ReadMem (0x4000C048, 0x0004 Bytes, ...) -- CPU is running -- CPU_ReadMem(4 bytes @ 0x4000C048) -- Data:  AA AA AA AA  returns 0x01 (0001ms, 0692ms total)
T2298 005:253 JLINK_ReadMem (0x4000C0A4, 0x0004 Bytes, ...) -- CPU is running -- CPU_ReadMem(4 bytes @ 0x4000C0A4) -- Data:  AA AA AA AA  returns 0x01 (0001ms, 0693ms total)
T2298 005:254 JLINK_ReadMem (0x4000C0A8, 0x0004 Bytes, ...) -- CPU is running -- CPU_ReadMem(4 bytes @ 0x4000C0A8) -- Data:  AA AA AA AA  returns 0x01 (0001ms, 0694ms total)
T2298 005:255 JLINK_ReadMem (0x4000CFC0, 0x0004 Bytes, ...) -- CPU is running -- CPU_ReadMem(4 bytes @ 0x4000CFC0) -- Data:  AA AA AA AA  returns 0x01 (0001ms, 0695ms total)
T2298 005:256 JLINK_ReadMem (0x4000CFC8, 0x0004 Bytes, ...) -- CPU is running -- CPU_ReadMem(4 bytes @ 0x4000CFC8) -- Data:  AA AA AA AA  returns 0x01 (0001ms, 0696ms total)
T22F8 005:260 JLINK_IsHalted()  returns FALSE (0000ms, 0696ms total)
T22F8 005:360 JLINK_IsHalted()  returns FALSE (0000ms, 0696ms total)
T22F8 005:460 JLINK_IsHalted()  returns FALSE (0000ms, 0696ms total)
T22F8 005:560 JLINK_IsHalted()  returns FALSE (0000ms, 0696ms total)
T22F8 005:660 JLINK_IsHalted()  returns FALSE (0000ms, 0696ms total)
T22F8 005:760 JLINK_ReadMemU32(0xE0001004, 0x0001 Items, ...) -- CPU is running -- CPU_ReadMem(4 bytes @ 0xE0001004) -- Data:  55 81 EC 04  returns 0x01 (0001ms, 0697ms total)
T2298 005:761 JLINK_ReadMem (0x20000612, 0x0010 Bytes, ...) -- CPU is running -- CPU_ReadMem(16 bytes @ 0x20000612) -- Data:  00 00 00 00 00 00 00 00 00 00 00 00 00 00 00 00  returns 0x00 (0001ms, 0698ms total)
T2298 005:762 JLINK_ReadMem (0x20000160, 0x0004 Bytes, ...) -- CPU is running -- CPU_ReadMem(4 bytes @ 0x20000160) -- Data:  00 00 00 00  returns 0x00 (0001ms, 0699ms total)
T2298 005:764 JLINK_ReadMem (0x2000005C, 0x0002 Bytes, ...) -- CPU is running -- CPU_ReadMem(2 bytes @ 0x2000005C) -- Data:  00 00  returns 0x00 (0001ms, 0700ms total)
T2298 005:765 JLINK_ReadMem (0x2000005E, 0x0002 Bytes, ...) -- CPU is running -- CPU_ReadMem(2 bytes @ 0x2000005E) -- Data:  00 00  returns 0x00 (0001ms, 0701ms total)
T2298 005:766 JLINK_ReadMem (0x20000060, 0x0002 Bytes, ...) -- CPU is running -- CPU_ReadMem(2 bytes @ 0x20000060) -- Data:  00 00  returns 0x00 (0001ms, 0702ms total)
T2298 005:767 JLINK_ReadMem (0x20000062, 0x0002 Bytes, ...) -- CPU is running -- CPU_ReadMem(2 bytes @ 0x20000062) -- Data:  00 00  returns 0x00 (0001ms, 0703ms total)
T2298 005:768 JLINK_ReadMem (0x20000480, 0x0020 Bytes, ...) -- CPU is running -- CPU_ReadMem(32 bytes @ 0x20000480) -- Data:  00 00 00 00 00 00 00 00 00 00 00 00 00 00 00 00 ...  returns 0x00 (0001ms, 0704ms total)
T2298 005:769 JLINK_ReadMem (0x20000480, 0x0020 Bytes, ...) -- CPU is running -- CPU_ReadMem(32 bytes @ 0x20000480) -- Data:  00 00 00 00 00 00 00 00 00 00 00 00 00 00 00 00 ...  returns 0x00 (0001ms, 0705ms total)
T2298 005:770 JLINK_ReadMem (0x20000028, 0x0004 Bytes, ...) -- CPU is running -- CPU_ReadMem(4 bytes @ 0x20000028) -- Data:  00 00 00 00  returns 0x00 (0001ms, 0706ms total)
T2298 005:771 JLINK_ReadMem (0x4000C000, 0x0004 Bytes, ...) -- CPU is running -- CPU_ReadMem(4 bytes @ 0x4000C000) -- Data:  AA AA AA AA  returns 0x01 (0001ms, 0707ms total)
T2298 005:772 JLINK_ReadMem (0x4000C004, 0x0004 Bytes, ...) -- CPU is running -- CPU_ReadMem(4 bytes @ 0x4000C004) -- Data:  AA AA AA AA  returns 0x01 (0001ms, 0708ms total)
T2298 005:773 JLINK_ReadMem (0x4000C018, 0x0004 Bytes, ...) -- CPU is running -- CPU_ReadMem(4 bytes @ 0x4000C018) -- Data:  AA AA AA AA  returns 0x01 (0001ms, 0709ms total)
T2298 005:774 JLINK_ReadMem (0x4000C020, 0x0020 Bytes, ...) -- CPU is running -- CPU_ReadMem(32 bytes @ 0x4000C020) -- Data:  AA AA AA AA AA AA AA AA AA AA AA AA AA AA AA AA ...  returns 0x01 (0001ms, 0710ms total)
T2298 005:775 JLINK_ReadMem (0x4000C040, 0x0004 Bytes, ...) -- CPU is running -- CPU_ReadMem(4 bytes @ 0x4000C040) -- Data:  AA AA AA AA  returns 0x01 (0001ms, 0711ms total)
T2298 005:776 JLINK_ReadMem (0x4000C048, 0x0004 Bytes, ...) -- CPU is running -- CPU_ReadMem(4 bytes @ 0x4000C048) -- Data:  AA AA AA AA  returns 0x01 (0001ms, 0712ms total)
T2298 005:777 JLINK_ReadMem (0x4000C0A4, 0x0004 Bytes, ...) -- CPU is running -- CPU_ReadMem(4 bytes @ 0x4000C0A4) -- Data:  AA AA AA AA  returns 0x01 (0001ms, 0713ms total)
T2298 005:778 JLINK_ReadMem (0x4000C0A8, 0x0004 Bytes, ...) -- CPU is running -- CPU_ReadMem(4 bytes @ 0x4000C0A8) -- Data:  AA AA AA AA  returns 0x01 (0001ms, 0714ms total)
T2298 005:779 JLINK_ReadMem (0x4000CFC0, 0x0004 Bytes, ...) -- CPU is running -- CPU_ReadMem(4 bytes @ 0x4000CFC0) -- Data:  AA AA AA AA  returns 0x01 (0001ms, 0715ms total)
T2298 005:780 JLINK_ReadMem (0x4000CFC8, 0x0004 Bytes, ...) -- CPU is running -- CPU_ReadMem(4 bytes @ 0x4000CFC8) -- Data:  AA AA AA AA  returns 0x01 (0001ms, 0716ms total)
T22F8 005:786 JLINK_IsHalted()  returns FALSE (0001ms, 0717ms total)
T22F8 005:887 JLINK_IsHalted()  returns FALSE (0000ms, 0716ms total)
T22F8 005:987 JLINK_IsHalted()  returns FALSE (0000ms, 0716ms total)
T22F8 006:087 JLINK_IsHalted()  returns FALSE (0000ms, 0716ms total)
T22F8 006:187 JLINK_IsHalted()  returns FALSE (0000ms, 0716ms total)
T22F8 006:287 JLINK_ReadMemU32(0xE0001004, 0x0001 Items, ...) -- CPU is running -- CPU_ReadMem(4 bytes @ 0xE0001004) -- Data:  87 79 6F 07  returns 0x01 (0000ms, 0716ms total)
T2298 006:288 JLINK_ReadMem (0x20000612, 0x0010 Bytes, ...) -- CPU is running -- CPU_ReadMem(16 bytes @ 0x20000612) -- Data:  00 00 00 00 00 00 00 00 00 00 00 00 00 00 00 00  returns 0x00 (0001ms, 0717ms total)
T2298 006:289 JLINK_ReadMem (0x20000160, 0x0004 Bytes, ...) -- CPU is running -- CPU_ReadMem(4 bytes @ 0x20000160) -- Data:  00 00 00 00  returns 0x00 (0001ms, 0718ms total)
T2298 006:291 JLINK_ReadMem (0x2000005C, 0x0002 Bytes, ...) -- CPU is running -- CPU_ReadMem(2 bytes @ 0x2000005C) -- Data:  00 00  returns 0x00 (0001ms, 0719ms total)
T2298 006:292 JLINK_ReadMem (0x2000005E, 0x0002 Bytes, ...) -- CPU is running -- CPU_ReadMem(2 bytes @ 0x2000005E) -- Data:  00 00  returns 0x00 (0001ms, 0720ms total)
T2298 006:293 JLINK_ReadMem (0x20000060, 0x0002 Bytes, ...) -- CPU is running -- CPU_ReadMem(2 bytes @ 0x20000060) -- Data:  00 00  returns 0x00 (0001ms, 0721ms total)
T2298 006:294 JLINK_ReadMem (0x20000062, 0x0002 Bytes, ...) -- CPU is running -- CPU_ReadMem(2 bytes @ 0x20000062) -- Data:  00 00  returns 0x00 (0001ms, 0722ms total)
T2298 006:295 JLINK_ReadMem (0x20000480, 0x0020 Bytes, ...) -- CPU is running -- CPU_ReadMem(32 bytes @ 0x20000480) -- Data:  00 00 00 00 00 00 00 00 00 00 00 00 00 00 00 00 ...  returns 0x00 (0001ms, 0723ms total)
T2298 006:296 JLINK_ReadMem (0x20000480, 0x0020 Bytes, ...) -- CPU is running -- CPU_ReadMem(32 bytes @ 0x20000480) -- Data:  00 00 00 00 00 00 00 00 00 00 00 00 00 00 00 00 ...  returns 0x00 (0001ms, 0724ms total)
T2298 006:297 JLINK_ReadMem (0x20000028, 0x0004 Bytes, ...) -- CPU is running -- CPU_ReadMem(4 bytes @ 0x20000028) -- Data:  00 00 00 00  returns 0x00 (0001ms, 0725ms total)
T2298 006:298 JLINK_ReadMem (0x4000C000, 0x0004 Bytes, ...) -- CPU is running -- CPU_ReadMem(4 bytes @ 0x4000C000) -- Data:  AA AA AA AA  returns 0x01 (0001ms, 0726ms total)
T2298 006:299 JLINK_ReadMem (0x4000C004, 0x0004 Bytes, ...) -- CPU is running -- CPU_ReadMem(4 bytes @ 0x4000C004) -- Data:  AA AA AA AA  returns 0x01 (0001ms, 0727ms total)
T2298 006:300 JLINK_ReadMem (0x4000C018, 0x0004 Bytes, ...) -- CPU is running -- CPU_ReadMem(4 bytes @ 0x4000C018) -- Data:  AA AA AA AA  returns 0x01 (0001ms, 0728ms total)
T2298 006:301 JLINK_ReadMem (0x4000C020, 0x0020 Bytes, ...) -- CPU is running -- CPU_ReadMem(32 bytes @ 0x4000C020) -- Data:  AA AA AA AA AA AA AA AA AA AA AA AA AA AA AA AA ...  returns 0x01 (0001ms, 0729ms total)
T2298 006:302 JLINK_ReadMem (0x4000C040, 0x0004 Bytes, ...) -- CPU is running -- CPU_ReadMem(4 bytes @ 0x4000C040) -- Data:  AA AA AA AA  returns 0x01 (0001ms, 0730ms total)
T2298 006:303 JLINK_ReadMem (0x4000C048, 0x0004 Bytes, ...) -- CPU is running -- CPU_ReadMem(4 bytes @ 0x4000C048) -- Data:  AA AA AA AA  returns 0x01 (0001ms, 0731ms total)
T2298 006:304 JLINK_ReadMem (0x4000C0A4, 0x0004 Bytes, ...) -- CPU is running -- CPU_ReadMem(4 bytes @ 0x4000C0A4) -- Data:  AA AA AA AA  returns 0x01 (0001ms, 0732ms total)
T2298 006:305 JLINK_ReadMem (0x4000C0A8, 0x0004 Bytes, ...) -- CPU is running -- CPU_ReadMem(4 bytes @ 0x4000C0A8) -- Data:  AA AA AA AA  returns 0x01 (0001ms, 0733ms total)
T2298 006:306 JLINK_ReadMem (0x4000CFC0, 0x0004 Bytes, ...) -- CPU is running -- CPU_ReadMem(4 bytes @ 0x4000CFC0) -- Data:  AA AA AA AA  returns 0x01 (0001ms, 0734ms total)
T2298 006:307 JLINK_ReadMem (0x4000CFC8, 0x0004 Bytes, ...) -- CPU is running -- CPU_ReadMem(4 bytes @ 0x4000CFC8) -- Data:  AA AA AA AA  returns 0x01 (0001ms, 0735ms total)
T22F8 006:312 JLINK_IsHalted()  returns FALSE (0000ms, 0735ms total)
T22F8 006:412 JLINK_IsHalted()  returns FALSE (0000ms, 0735ms total)
T22F8 006:512 JLINK_IsHalted()  returns FALSE (0000ms, 0735ms total)
T22F8 006:612 JLINK_IsHalted()  returns FALSE (0000ms, 0735ms total)
T22F8 006:712 JLINK_IsHalted()  returns FALSE (0000ms, 0735ms total)
T22F8 006:812 JLINK_ReadMemU32(0xE0001004, 0x0001 Items, ...) -- CPU is running -- CPU_ReadMem(4 bytes @ 0xE0001004) -- Data:  B5 E4 F0 09  returns 0x01 (0001ms, 0736ms total)
T2298 006:813 JLINK_ReadMem (0x20000612, 0x0010 Bytes, ...) -- CPU is running -- CPU_ReadMem(16 bytes @ 0x20000612) -- Data:  00 00 00 00 00 00 00 00 00 00 00 00 00 00 00 00  returns 0x00 (0001ms, 0737ms total)
T2298 006:814 JLINK_ReadMem (0x20000160, 0x0004 Bytes, ...) -- CPU is running -- CPU_ReadMem(4 bytes @ 0x20000160) -- Data:  00 00 00 00  returns 0x00 (0001ms, 0738ms total)
T2298 006:816 JLINK_ReadMem (0x2000005C, 0x0002 Bytes, ...) -- CPU is running -- CPU_ReadMem(2 bytes @ 0x2000005C) -- Data:  00 00  returns 0x00 (0001ms, 0739ms total)
T2298 006:817 JLINK_ReadMem (0x2000005E, 0x0002 Bytes, ...) -- CPU is running -- CPU_ReadMem(2 bytes @ 0x2000005E) -- Data:  00 00  returns 0x00 (0000ms, 0739ms total)
T2298 006:818 JLINK_ReadMem (0x20000060, 0x0002 Bytes, ...) -- CPU is running -- CPU_ReadMem(2 bytes @ 0x20000060) -- Data:  00 00  returns 0x00 (0000ms, 0739ms total)
T2298 006:818 JLINK_ReadMem (0x20000062, 0x0002 Bytes, ...) -- CPU is running -- CPU_ReadMem(2 bytes @ 0x20000062) -- Data:  00 00  returns 0x00 (0001ms, 0740ms total)
T2298 006:819 JLINK_ReadMem (0x20000480, 0x0020 Bytes, ...) -- CPU is running -- CPU_ReadMem(32 bytes @ 0x20000480) -- Data:  00 00 00 00 00 00 00 00 00 00 00 00 00 00 00 00 ...  returns 0x00 (0001ms, 0741ms total)
T2298 006:820 JLINK_ReadMem (0x20000480, 0x0020 Bytes, ...) -- CPU is running -- CPU_ReadMem(32 bytes @ 0x20000480) -- Data:  00 00 00 00 00 00 00 00 00 00 00 00 00 00 00 00 ...  returns 0x00 (0001ms, 0742ms total)
T2298 006:821 JLINK_ReadMem (0x20000028, 0x0004 Bytes, ...) -- CPU is running -- CPU_ReadMem(4 bytes @ 0x20000028) -- Data:  00 00 00 00  returns 0x00 (0001ms, 0743ms total)
T2298 006:822 JLINK_ReadMem (0x4000C000, 0x0004 Bytes, ...) -- CPU is running -- CPU_ReadMem(4 bytes @ 0x4000C000) -- Data:  AA AA AA AA  returns 0x01 (0001ms, 0744ms total)
T2298 006:823 JLINK_ReadMem (0x4000C004, 0x0004 Bytes, ...) -- CPU is running -- CPU_ReadMem(4 bytes @ 0x4000C004) -- Data:  AA AA AA AA  returns 0x01 (0001ms, 0745ms total)
T2298 006:824 JLINK_ReadMem (0x4000C018, 0x0004 Bytes, ...) -- CPU is running -- CPU_ReadMem(4 bytes @ 0x4000C018) -- Data:  AA AA AA AA  returns 0x01 (0001ms, 0746ms total)
T2298 006:825 JLINK_ReadMem (0x4000C020, 0x0020 Bytes, ...) -- CPU is running -- CPU_ReadMem(32 bytes @ 0x4000C020) -- Data:  AA AA AA AA AA AA AA AA AA AA AA AA AA AA AA AA ...  returns 0x01 (0001ms, 0747ms total)
T2298 006:826 JLINK_ReadMem (0x4000C040, 0x0004 Bytes, ...) -- CPU is running -- CPU_ReadMem(4 bytes @ 0x4000C040) -- Data:  AA AA AA AA  returns 0x01 (0001ms, 0748ms total)
T2298 006:827 JLINK_ReadMem (0x4000C048, 0x0004 Bytes, ...) -- CPU is running -- CPU_ReadMem(4 bytes @ 0x4000C048) -- Data:  AA AA AA AA  returns 0x01 (0001ms, 0749ms total)
T2298 006:828 JLINK_ReadMem (0x4000C0A4, 0x0004 Bytes, ...) -- CPU is running -- CPU_ReadMem(4 bytes @ 0x4000C0A4) -- Data:  AA AA AA AA  returns 0x01 (0001ms, 0750ms total)
T2298 006:829 JLINK_ReadMem (0x4000C0A8, 0x0004 Bytes, ...) -- CPU is running -- CPU_ReadMem(4 bytes @ 0x4000C0A8) -- Data:  AA AA AA AA  returns 0x01 (0001ms, 0751ms total)
T2298 006:830 JLINK_ReadMem (0x4000CFC0, 0x0004 Bytes, ...) -- CPU is running -- CPU_ReadMem(4 bytes @ 0x4000CFC0) -- Data:  AA AA AA AA  returns 0x01 (0001ms, 0752ms total)
T2298 006:831 JLINK_ReadMem (0x4000CFC8, 0x0004 Bytes, ...) -- CPU is running -- CPU_ReadMem(4 bytes @ 0x4000CFC8) -- Data:  AA AA AA AA  returns 0x01 (0000ms, 0752ms total)
T22F8 006:834 JLINK_IsHalted()  returns FALSE (0001ms, 0753ms total)
T22F8 006:935 JLINK_IsHalted()  returns FALSE (0000ms, 0752ms total)
T22F8 007:035 JLINK_IsHalted()  returns FALSE (0000ms, 0752ms total)
T22F8 007:135 JLINK_IsHalted()  returns FALSE (0000ms, 0752ms total)
T22F8 007:235 JLINK_IsHalted()  returns FALSE (0001ms, 0753ms total)
T22F8 007:336 JLINK_ReadMemU32(0xE0001004, 0x0001 Items, ...) -- CPU is running -- CPU_ReadMem(4 bytes @ 0xE0001004) -- Data:  3F 57 70 0C  returns 0x01 (0000ms, 0752ms total)
T2298 007:337 JLINK_ReadMem (0x20000612, 0x0010 Bytes, ...) -- CPU is running -- CPU_ReadMem(16 bytes @ 0x20000612) -- Data:  00 00 00 00 00 00 00 00 00 00 00 00 00 00 00 00  returns 0x00 (0001ms, 0754ms total)
T2298 007:338 JLINK_ReadMem (0x20000160, 0x0004 Bytes, ...) -- CPU is running -- CPU_ReadMem(4 bytes @ 0x20000160) -- Data:  00 00 00 00  returns 0x00 (0001ms, 0755ms total)
T2298 007:340 JLINK_ReadMem (0x2000005C, 0x0002 Bytes, ...) -- CPU is running -- CPU_ReadMem(2 bytes @ 0x2000005C) -- Data:  00 00  returns 0x00 (0001ms, 0756ms total)
T2298 007:341 JLINK_ReadMem (0x2000005E, 0x0002 Bytes, ...) -- CPU is running -- CPU_ReadMem(2 bytes @ 0x2000005E) -- Data:  00 00  returns 0x00 (0001ms, 0757ms total)
T2298 007:342 JLINK_ReadMem (0x20000060, 0x0002 Bytes, ...) -- CPU is running -- CPU_ReadMem(2 bytes @ 0x20000060) -- Data:  00 00  returns 0x00 (0000ms, 0757ms total)
T2298 007:342 JLINK_ReadMem (0x20000062, 0x0002 Bytes, ...) -- CPU is running -- CPU_ReadMem(2 bytes @ 0x20000062) -- Data:  00 00  returns 0x00 (0001ms, 0758ms total)
T2298 007:343 JLINK_ReadMem (0x20000480, 0x0020 Bytes, ...) -- CPU is running -- CPU_ReadMem(32 bytes @ 0x20000480) -- Data:  00 00 00 00 00 00 00 00 00 00 00 00 00 00 00 00 ...  returns 0x00 (0002ms, 0760ms total)
T2298 007:345 JLINK_ReadMem (0x20000480, 0x0020 Bytes, ...) -- CPU is running -- CPU_ReadMem(32 bytes @ 0x20000480) -- Data:  00 00 00 00 00 00 00 00 00 00 00 00 00 00 00 00 ...  returns 0x00 (0001ms, 0761ms total)
T2298 007:346 JLINK_ReadMem (0x20000028, 0x0004 Bytes, ...) -- CPU is running -- CPU_ReadMem(4 bytes @ 0x20000028) -- Data:  00 00 00 00  returns 0x00 (0000ms, 0761ms total)
T2298 007:347 JLINK_ReadMem (0x4000C000, 0x0004 Bytes, ...) -- CPU is running -- CPU_ReadMem(4 bytes @ 0x4000C000) -- Data:  AA AA AA AA  returns 0x01 (0000ms, 0761ms total)
T2298 007:347 JLINK_ReadMem (0x4000C004, 0x0004 Bytes, ...) -- CPU is running -- CPU_ReadMem(4 bytes @ 0x4000C004) -- Data:  AA AA AA AA  returns 0x01 (0001ms, 0762ms total)
T2298 007:348 JLINK_ReadMem (0x4000C018, 0x0004 Bytes, ...) -- CPU is running -- CPU_ReadMem(4 bytes @ 0x4000C018) -- Data:  AA AA AA AA  returns 0x01 (0001ms, 0763ms total)
T2298 007:349 JLINK_ReadMem (0x4000C020, 0x0020 Bytes, ...) -- CPU is running -- CPU_ReadMem(32 bytes @ 0x4000C020) -- Data:  AA AA AA AA AA AA AA AA AA AA AA AA AA AA AA AA ...  returns 0x01 (0002ms, 0765ms total)
T2298 007:351 JLINK_ReadMem (0x4000C040, 0x0004 Bytes, ...) -- CPU is running -- CPU_ReadMem(4 bytes @ 0x4000C040) -- Data:  AA AA AA AA  returns 0x01 (0001ms, 0766ms total)
T2298 007:352 JLINK_ReadMem (0x4000C048, 0x0004 Bytes, ...) -- CPU is running -- CPU_ReadMem(4 bytes @ 0x4000C048) -- Data:  AA AA AA AA  returns 0x01 (0001ms, 0767ms total)
T2298 007:353 JLINK_ReadMem (0x4000C0A4, 0x0004 Bytes, ...) -- CPU is running -- CPU_ReadMem(4 bytes @ 0x4000C0A4) -- Data:  AA AA AA AA  returns 0x01 (0001ms, 0768ms total)
T2298 007:354 JLINK_ReadMem (0x4000C0A8, 0x0004 Bytes, ...) -- CPU is running -- CPU_ReadMem(4 bytes @ 0x4000C0A8) -- Data:  AA AA AA AA  returns 0x01 (0000ms, 0768ms total)
T2298 007:354 JLINK_ReadMem (0x4000CFC0, 0x0004 Bytes, ...) -- CPU is running -- CPU_ReadMem(4 bytes @ 0x4000CFC0) -- Data:  AA AA AA AA  returns 0x01 (0001ms, 0769ms total)
T2298 007:355 JLINK_ReadMem (0x4000CFC8, 0x0004 Bytes, ...) -- CPU is running -- CPU_ReadMem(4 bytes @ 0x4000CFC8) -- Data:  AA AA AA AA  returns 0x01 (0001ms, 0770ms total)
T22F8 007:358 JLINK_IsHalted()  returns FALSE (0001ms, 0771ms total)
T22F8 007:459 JLINK_IsHalted()  returns FALSE (0000ms, 0770ms total)
T22F8 007:559 JLINK_IsHalted()  returns FALSE (0000ms, 0770ms total)
T22F8 007:659 JLINK_IsHalted()  returns FALSE (0000ms, 0770ms total)
T22F8 007:759 JLINK_IsHalted()  returns FALSE (0000ms, 0770ms total)
T22F8 007:859 JLINK_ReadMemU32(0xE0001004, 0x0001 Items, ...) -- CPU is running -- CPU_ReadMem(4 bytes @ 0xE0001004) -- Data:  5F 46 EF 0E  returns 0x01 (0001ms, 0771ms total)
T2298 007:860 JLINK_ReadMem (0x20000612, 0x0010 Bytes, ...) -- CPU is running -- CPU_ReadMem(16 bytes @ 0x20000612) -- Data:  FF 1F 02 E6 1F 0D F6 9E FF DD 00 1F 00 2E 00 00  returns 0x00 (0001ms, 0772ms total)
T2298 007:865 JLINK_ReadMem (0x20000160, 0x0004 Bytes, ...) -- CPU is running -- CPU_ReadMem(4 bytes @ 0x20000160) -- Data:  F0 3F C0 BE  returns 0x00 (0001ms, 0773ms total)
T2298 007:867 JLINK_ReadMem (0x2000005C, 0x0002 Bytes, ...) -- CPU is running -- CPU_ReadMem(2 bytes @ 0x2000005C) -- Data:  00 00  returns 0x00 (0001ms, 0774ms total)
T2298 007:868 JLINK_ReadMem (0x2000005E, 0x0002 Bytes, ...) -- CPU is running -- CPU_ReadMem(2 bytes @ 0x2000005E) -- Data:  00 00  returns 0x00 (0001ms, 0775ms total)
T2298 007:869 JLINK_ReadMem (0x20000060, 0x0002 Bytes, ...) -- CPU is running -- CPU_ReadMem(2 bytes @ 0x20000060) -- Data:  00 00  returns 0x00 (0001ms, 0776ms total)
T2298 007:870 JLINK_ReadMem (0x20000062, 0x0002 Bytes, ...) -- CPU is running -- CPU_ReadMem(2 bytes @ 0x20000062) -- Data:  00 00  returns 0x00 (0001ms, 0777ms total)
T2298 007:871 JLINK_ReadMem (0x20000480, 0x0020 Bytes, ...) -- CPU is running -- CPU_ReadMem(32 bytes @ 0x20000480) -- Data:  AA AA 03 14 04 48 05 E0 05 E8 05 E0 00 00 00 00 ...  returns 0x00 (0001ms, 0778ms total)
T2298 007:872 JLINK_ReadMem (0x20000480, 0x0020 Bytes, ...) -- CPU is running -- CPU_ReadMem(32 bytes @ 0x20000480) -- Data:  AA AA 03 14 04 48 05 E0 05 E8 05 E0 00 00 00 00 ...  returns 0x00 (0001ms, 0779ms total)
T2298 007:873 JLINK_ReadMem (0x20000028, 0x0004 Bytes, ...) -- CPU is running -- CPU_ReadMem(4 bytes @ 0x20000028) -- Data:  53 02 00 00  returns 0x00 (0001ms, 0780ms total)
T2298 007:874 JLINK_ReadMem (0x4000C000, 0x0004 Bytes, ...) -- CPU is running -- CPU_ReadMem(4 bytes @ 0x4000C000) -- Data:  00 00 00 00  returns 0x00 (0001ms, 0781ms total)
T2298 007:875 JLINK_ReadMem (0x4000C004, 0x0004 Bytes, ...) -- CPU is running -- CPU_ReadMem(4 bytes @ 0x4000C004) -- Data:  00 00 00 00  returns 0x00 (0001ms, 0782ms total)
T2298 007:876 JLINK_ReadMem (0x4000C018, 0x0004 Bytes, ...) -- CPU is running -- CPU_ReadMem(4 bytes @ 0x4000C018) -- Data:  90 00 00 00  returns 0x00 (0000ms, 0782ms total)
T2298 007:876 JLINK_ReadMem (0x4000C020, 0x0020 Bytes, ...) -- CPU is running -- CPU_ReadMem(32 bytes @ 0x4000C020) -- Data:  00 00 00 00 2B 00 00 00 1A 00 00 00 70 00 00 00 ...  returns 0x00 (0001ms, 0783ms total)
T2298 007:877 JLINK_ReadMem (0x4000C040, 0x0004 Bytes, ...) -- CPU is running -- CPU_ReadMem(4 bytes @ 0x4000C040) -- Data:  00 00 00 00  returns 0x00 (0001ms, 0784ms total)
T2298 007:878 JLINK_ReadMem (0x4000C048, 0x0004 Bytes, ...) -- CPU is running -- CPU_ReadMem(4 bytes @ 0x4000C048) -- Data:  00 00 00 00  returns 0x00 (0001ms, 0785ms total)
T2298 007:879 JLINK_ReadMem (0x4000C0A4, 0x0004 Bytes, ...) -- CPU is running -- CPU_ReadMem(4 bytes @ 0x4000C0A4) -- Data:  00 00 00 00  returns 0x00 (0001ms, 0786ms total)
T2298 007:880 JLINK_ReadMem (0x4000C0A8, 0x0004 Bytes, ...) -- CPU is running -- CPU_ReadMem(4 bytes @ 0x4000C0A8) -- Data:  FF 00 00 00  returns 0x00 (0001ms, 0787ms total)
T2298 007:881 JLINK_ReadMem (0x4000CFC0, 0x0004 Bytes, ...) -- CPU is running -- CPU_ReadMem(4 bytes @ 0x4000CFC0) -- Data:  03 00 00 00  returns 0x00 (0001ms, 0788ms total)
T2298 007:882 JLINK_ReadMem (0x4000CFC8, 0x0004 Bytes, ...) -- CPU is running -- CPU_ReadMem(4 bytes @ 0x4000CFC8) -- Data:  00 00 00 00  returns 0x00 (0000ms, 0788ms total)
T22F8 007:969 JLINK_IsHalted()  returns FALSE (0001ms, 0789ms total)
T22F8 008:070 JLINK_IsHalted()  returns FALSE (0000ms, 0788ms total)
T22F8 008:170 JLINK_IsHalted()  returns FALSE (0000ms, 0788ms total)
T22F8 008:270 JLINK_IsHalted()  returns FALSE (0000ms, 0788ms total)
T22F8 008:370 JLINK_ReadMemU32(0xE0001004, 0x0001 Items, ...) -- CPU is running -- CPU_ReadMem(4 bytes @ 0xE0001004) -- Data:  0A B4 5E 11  returns 0x01 (0000ms, 0788ms total)
T2298 008:374 JLINK_ReadMem (0x20000612, 0x0010 Bytes, ...) -- CPU is running -- CPU_ReadMem(16 bytes @ 0x20000612) -- Data:  FF 25 02 DC 1F 17 F6 A5 FF DF 00 19 00 2E 00 00  returns 0x00 (0002ms, 0790ms total)
T2298 008:379 JLINK_ReadMem (0x20000160, 0x0004 Bytes, ...) -- CPU is running -- CPU_ReadMem(4 bytes @ 0x20000160) -- Data:  07 30 C7 3E  returns 0x00 (0000ms, 0790ms total)
T2298 008:381 JLINK_ReadMem (0x2000005C, 0x0002 Bytes, ...) -- CPU is running -- CPU_ReadMem(2 bytes @ 0x2000005C) -- Data:  00 00  returns 0x00 (0001ms, 0791ms total)
T2298 008:382 JLINK_ReadMem (0x2000005E, 0x0002 Bytes, ...) -- CPU is running -- CPU_ReadMem(2 bytes @ 0x2000005E) -- Data:  00 00  returns 0x00 (0001ms, 0792ms total)
T2298 008:383 JLINK_ReadMem (0x20000060, 0x0002 Bytes, ...) -- CPU is running -- CPU_ReadMem(2 bytes @ 0x20000060) -- Data:  00 00  returns 0x00 (0000ms, 0792ms total)
T2298 008:383 JLINK_ReadMem (0x20000062, 0x0002 Bytes, ...) -- CPU is running -- CPU_ReadMem(2 bytes @ 0x20000062) -- Data:  00 00  returns 0x00 (0001ms, 0793ms total)
T2298 008:384 JLINK_ReadMem (0x20000480, 0x0020 Bytes, ...) -- CPU is running -- CPU_ReadMem(32 bytes @ 0x20000480) -- Data:  AA AA 01 0D 00 52 00 2F 00 26 00 00 00 00 00 00 ...  returns 0x00 (0001ms, 0794ms total)
T2298 008:386 JLINK_ReadMem (0x20000480, 0x0020 Bytes, ...) -- CPU is running -- CPU_ReadMem(32 bytes @ 0x20000480) -- Data:  AA AA 01 0D 00 52 00 2F 00 26 00 00 00 00 00 00 ...  returns 0x00 (0001ms, 0795ms total)
T2298 008:387 JLINK_ReadMem (0x20000028, 0x0004 Bytes, ...) -- CPU is running -- CPU_ReadMem(4 bytes @ 0x20000028) -- Data:  86 02 00 00  returns 0x00 (0000ms, 0795ms total)
T2298 008:387 JLINK_ReadMem (0x4000C000, 0x0004 Bytes, ...) -- CPU is running -- CPU_ReadMem(4 bytes @ 0x4000C000) -- Data:  00 00 00 00  returns 0x00 (0001ms, 0796ms total)
T2298 008:388 JLINK_ReadMem (0x4000C004, 0x0004 Bytes, ...) -- CPU is running -- CPU_ReadMem(4 bytes @ 0x4000C004) -- Data:  00 00 00 00  returns 0x00 (0001ms, 0797ms total)
T2298 008:389 JLINK_ReadMem (0x4000C018, 0x0004 Bytes, ...) -- CPU is running -- CPU_ReadMem(4 bytes @ 0x4000C018) -- Data:  90 00 00 00  returns 0x00 (0001ms, 0798ms total)
T2298 008:390 JLINK_ReadMem (0x4000C020, 0x0020 Bytes, ...) -- CPU is running -- CPU_ReadMem(32 bytes @ 0x4000C020) -- Data:  00 00 00 00 2B 00 00 00 1A 00 00 00 70 00 00 00 ...  returns 0x00 (0001ms, 0799ms total)
T2298 008:391 JLINK_ReadMem (0x4000C040, 0x0004 Bytes, ...) -- CPU is running -- CPU_ReadMem(4 bytes @ 0x4000C040) -- Data:  00 00 00 00  returns 0x00 (0001ms, 0800ms total)
T2298 008:392 JLINK_ReadMem (0x4000C048, 0x0004 Bytes, ...) -- CPU is running -- CPU_ReadMem(4 bytes @ 0x4000C048) -- Data:  00 00 00 00  returns 0x00 (0001ms, 0801ms total)
T2298 008:393 JLINK_ReadMem (0x4000C0A4, 0x0004 Bytes, ...) -- CPU is running -- CPU_ReadMem(4 bytes @ 0x4000C0A4) -- Data:  00 00 00 00  returns 0x00 (0001ms, 0802ms total)
T2298 008:394 JLINK_ReadMem (0x4000C0A8, 0x0004 Bytes, ...) -- CPU is running -- CPU_ReadMem(4 bytes @ 0x4000C0A8) -- Data:  FF 00 00 00  returns 0x00 (0000ms, 0802ms total)
T2298 008:394 JLINK_ReadMem (0x4000CFC0, 0x0004 Bytes, ...) -- CPU is running -- CPU_ReadMem(4 bytes @ 0x4000CFC0) -- Data:  03 00 00 00  returns 0x00 (0001ms, 0803ms total)
T2298 008:395 JLINK_ReadMem (0x4000CFC8, 0x0004 Bytes, ...) -- CPU is running -- CPU_ReadMem(4 bytes @ 0x4000CFC8) -- Data:  00 00 00 00  returns 0x00 (0001ms, 0804ms total)
T22F8 008:399 JLINK_IsHalted()  returns FALSE (0000ms, 0804ms total)
T22F8 008:499 JLINK_IsHalted()  returns FALSE (0000ms, 0804ms total)
T22F8 008:599 JLINK_IsHalted()  returns FALSE (0000ms, 0804ms total)
